
T2784 000:589 SEGGER J-Link V4.88 Log File (0066ms, 0338ms total)
T2784 000:589 DLL Compiled: Jul 15 2014 08:50:40 (0066ms, 0338ms total)
T2784 000:589 Logging started @ 2017-09-15 13:31 (0066ms, 0338ms total)
T2784 000:655 JLINK_SetWarnOutHandler(...) (0000ms, 0338ms total)
T2784 000:655 JLINK_OpenEx(...)
Firmware: J-Link ARM-OB STM32 compiled Aug 22 2012 19:52:04
Hardware: V7.00
S/N: 20161007
Feature(s): RDI,FlashDL,FlashBP,JFlash,GDBFull  returns O.K. (0261ms, 0599ms total)
T2784 000:916 JLINK_SetErrorOutHandler(...) (0000ms, 0599ms total)
T2784 000:916 JLINK_ExecCommand("ProjectFile = "E:\本科比赛资料\2017电子设计国赛\2.四旋翼飞行器\@1.V1飞控代码 - (核心)\17年飞行器题目代码\17年飞行器最终代码\摄像头_图像板程序2017.8.12RGB\摄像头_图像板程序2017.8.9\摄像头_图像板程序v1.0\Project\JLinkSettings.ini"", ...)  returns 0x00 (0117ms, 0716ms total)
T2784 001:045 JLINK_ExecCommand("Device = STM32F407ZG", ...)Device "STM32F407ZG" selected (1024 KB flash, 128 KB RAM).  returns 0x00 (0006ms, 0722ms total)
T2784 001:051 JLINK_ExecCommand("DisableConnectionTimeout", ...)  returns 0x01 (0000ms, 0722ms total)
T2784 001:051 JLINK_GetHardwareVersion()  returns 0x11170 (0000ms, 0722ms total)
T2784 001:051 JLINK_GetDLLVersion()  returns 48800 (0000ms, 0722ms total)
T2784 001:051 JLINK_GetFirmwareString(...) (0000ms, 0722ms total)
T2784 001:069 JLINK_GetDLLVersion()  returns 48800 (0000ms, 0722ms total)
T2784 001:069 JLINK_GetCompileDateTime() (0000ms, 0722ms total)
T2784 001:074 JLINK_GetFirmwareString(...) (0000ms, 0722ms total)
T2784 001:077 JLINK_GetHardwareVersion()  returns 0x11170 (0000ms, 0722ms total)
T2784 001:088 JLINK_TIF_Select(JLINKARM_TIF_SWD)  returns 0x00 (0001ms, 0723ms total)
T2784 001:089 JLINK_SetSpeed(500) (0000ms, 0723ms total)
T2784 001:089 JLINK_GetId() >0x108 TIF>Found SWD-DP with ID 0x2BA01477 >0x0D TIF> >0x28 TIF> >0x0D TIF> >0x28 TIF> >0x0D TIF> >0x21 TIF> >0x0D TIF> >0x28 TIF> >0x0D TIF> >0x28 TIF> >0x0D TIF> >0x28 TIF> >0x0D TIF> >0x21 TIF> >0x0D TIF> >0x21 TIF> >0x0D TIF> >0x28 TIF> >0x0D TIF> >0x21 TIF> >0x0D TIF> >0x21 TIF> >0x0D TIF> >0x28 TIF> >0x0D TIF> >0x28 TIF> >0x0D TIF> >0x28 TIF> >0x0D TIF> >0x21 TIF> >0x0D TIF> >0x21 TIF> >0x0D TIF> >0x28 TIF> >0x0D TIF> >0x28 TIF> >0x108 TIF>Found SWD-DP with ID 0x2BA01477
 >0x0D TIF> >0x21 TIF> >0x0D TIF> >0x28 TIF> >0x0D TIF> >0x28 TIF> >0x0D TIF> >0x21 TIF> >0x0D TIF> >0x28 TIF> >0x0D TIF> >0x21 TIF> >0x0D TIF> >0x21 TIF> >0x0D TIF> >0x21 TIF> >0x0D TIF> >0x21 TIF> >0x0D TIF> >0x28 TIF> >0x0D TIF> >0x28 TIF> >0x0D TIF> >0x21 TIF> >0x0D TIF> >0x28 TIF> >0x0D TIF> >0x28 TIF> >0x0D TIF> >0x28 TIF> >0x0D TIF> >0x21 TIF> >0x0D TIF> >0x21 TIF> >0x0D TIF> >0x28 TIF> >0x0D TIF> >0x21 TIF> >0x0D TIF> >0x21 TIF>Found Cortex-M4 r0p1, Little endian.
 -- CPU_WriteMem(4 bytes @ 0xE0002000) -- CPU_ReadMem(4 bytes @ 0xE000EDF0) -- CPU_WriteMem(4 bytes @ 0xE000EDF0) -- CPU_ReadMem(4 bytes @ 0xE0002000)FPUnit: 6 code (BP) slots and 2 literal slots -- CPU_ReadMem(4 bytes @ 0xE000EDFC) -- CPU_WriteMem(4 bytes @ 0xE000EDFC) -- CPU_ReadMem(4 bytes @ 0xE0001000) -- CPU_WriteMem(4 bytes @ 0xE0001000) -- CPU_ReadMem(4 bytes @ 0xE00FF010)TPIU fitted. -- CPU_ReadMem(4 bytes @ 0xE00FF014)ETM fitted. -- CPU_ReadMem(4 bytes @ 0xE00FF018) >0x0D TIF> >0x21 TIF>
  returns 0x2BA01477 (0055ms, 0778ms total)
T2784 001:144 JLINK_GetDeviceFamily()  returns 14 (0000ms, 0778ms total)
T2784 001:147 JLINK_ReadMem (0xE00FFFF0, 0x0010 Bytes, ...) -- CPU is running -- CPU_ReadMem(16 bytes @ 0xE00FFFF0) - Data: 0D 00 00 00 10 00 00 00 05 00 00 00 B1 00 00 00  returns 0x00 (0002ms, 0780ms total)
T2784 001:149 JLINK_ReadMem (0xE00FFFD0, 0x0020 Bytes, ...) -- CPU is running -- CPU_ReadMem(32 bytes @ 0xE00FFFD0) - Data: 00 00 00 00 00 00 00 00 00 00 00 00 00 00 00 00 ...  returns 0x00 (0002ms, 0782ms total)
T2784 001:151 JLINK_ReadMem (0xE00FF000, 0x0018 Bytes, ...) -- CPU is running -- CPU_ReadMem(24 bytes @ 0xE00FF000) - Data: 03 F0 F0 FF 03 20 F0 FF 03 30 F0 FF 03 10 F0 FF ...  returns 0x00 (0002ms, 0784ms total)
T2784 001:153 JLINK_ReadMemU32(0xE000ED00, 0x0001 Items, ...) -- CPU is running -- CPU_ReadMem(4 bytes @ 0xE000ED00) - Data: 41 C2 0F 41  returns 0x01 (0002ms, 0786ms total)
T2784 001:155 JLINK_ReadMemU32(0xE000EF40, 0x0001 Items, ...) -- CPU is running -- CPU_ReadMem(4 bytes @ 0xE000EF40) - Data: 21 00 11 10  returns 0x01 (0001ms, 0787ms total)
T2784 001:156 JLINK_ReadMemU32(0xE000EF44, 0x0001 Items, ...) -- CPU is running -- CPU_ReadMem(4 bytes @ 0xE000EF44) - Data: 11 00 00 11  returns 0x01 (0001ms, 0788ms total)
T2784 001:157 JLINK_SetResetType(JLINKARM_RESET_TYPE_NORMAL)  returns JLINKARM_RESET_TYPE_NORMAL (0000ms, 0788ms total)
T2784 001:157 JLINK_Reset() -- CPU is running -- CPU_WriteMem(4 bytes @ 0xE000EDF0) -- CPU is running -- CPU_WriteMem(4 bytes @ 0xE000EDFC) >0x35 TIF> -- CPU is running -- CPU_WriteMem(4 bytes @ 0xE000ED0C) -- CPU is running -- CPU_ReadMem(4 bytes @ 0xE000EDF0) -- CPU is running -- CPU_ReadMem(4 bytes @ 0xE000EDF0) -- CPU is running -- CPU_WriteMem(4 bytes @ 0xE000EDF0) -- CPU is running -- CPU_WriteMem(4 bytes @ 0xE000EDFC) -- CPU is running -- CPU_ReadMem(4 bytes @ 0xE000EDF0)
 -- CPU_WriteMem(4 bytes @ 0xE0002000) -- CPU_ReadMem(4 bytes @ 0xE000EDFC) -- CPU_ReadMem(4 bytes @ 0xE0001000) (0034ms, 0822ms total)
T2784 001:191 JLINK_Halt()  returns 0x00 (0000ms, 0822ms total)
T2784 001:191 JLINK_IsHalted()  returns TRUE (0001ms, 0823ms total)
T2784 001:192 JLINK_ReadMemU32(0xE000EDF0, 0x0001 Items, ...) -- CPU_ReadMem(4 bytes @ 0xE000EDF0) - Data: 03 00 03 00  returns 0x01 (0001ms, 0823ms total)
T2784 001:193 JLINK_WriteU32(0xE000EDF0, 0xA05F0003) -- CPU_WriteMem(4 bytes @ 0xE000EDF0)  returns 0x00 (0001ms, 0824ms total)
T2784 001:194 JLINK_WriteU32(0xE000EDFC, 0x01000000) -- CPU_WriteMem(4 bytes @ 0xE000EDFC)  returns 0x00 (0001ms, 0825ms total)
T2784 001:206 JLINK_GetHWStatus(...)  returns 0x00 (0001ms, 0826ms total)
T2784 001:214 JLINK_GetNumBPUnits(Type = 0xFFFFFF00)  returns 0x06 (0000ms, 0826ms total)
T2784 001:214 JLINK_GetNumBPUnits(Type = 0xF0)  returns 0x2000 (0000ms, 0826ms total)
T2784 001:214 JLINK_GetNumWPUnits()  returns 0x04 (0000ms, 0826ms total)
T2784 001:222 JLINK_GetSpeed()  returns 0x1F4 (0000ms, 0826ms total)
T2784 001:227 JLINK_ReadMemU32(0xE000E004, 0x0001 Items, ...) -- CPU_ReadMem(4 bytes @ 0xE000E004) - Data: 02 00 00 00  returns 0x01 (0002ms, 0828ms total)
T2784 001:229 JLINK_ReadMemU32(0xE000E004, 0x0001 Items, ...) -- CPU_ReadMem(4 bytes @ 0xE000E004) - Data: 02 00 00 00  returns 0x01 (0001ms, 0829ms total)
T2784 001:230 JLINK_WriteMem(0xE0001000, 0x001C Bytes, ...) - Data: 01 00 00 00 00 00 00 00 00 00 00 00 00 00 00 00 ... -- CPU_WriteMem(28 bytes @ 0xE0001000)  returns 0x1C (0002ms, 0831ms total)
T2784 001:232 JLINK_ReadMem (0xE0001000, 0x001C Bytes, ...) -- CPU_ReadMem(28 bytes @ 0xE0001000) - Data: 01 00 00 40 00 00 00 00 00 00 00 00 00 00 00 00 ...  returns 0x00 (0002ms, 0833ms total)
T2784 001:234 JLINK_Halt()  returns 0x00 (0000ms, 0833ms total)
T2784 001:234 JLINK_IsHalted()  returns TRUE (0000ms, 0833ms total)
T2784 001:327 JLINK_WriteMem(0x20000000, 0x0180 Bytes, ...) - Data: 00 BE 0A E0 0D 78 2D 06 68 40 08 24 40 00 00 D3 ... -- CPU_WriteMem(384 bytes @ 0x20000000)  returns 0x180 (0018ms, 0851ms total)
T2784 001:345 JLINK_WriteReg(R0, 0x08000000)  returns 0x00 (0000ms, 0851ms total)
T2784 001:345 JLINK_WriteReg(R1, 0x0A037A00)  returns 0x00 (0000ms, 0851ms total)
T2784 001:345 JLINK_WriteReg(R2, 0x00000001)  returns 0x00 (0000ms, 0851ms total)
T2784 001:345 JLINK_WriteReg(R3, 0x00000000)  returns 0x00 (0001ms, 0852ms total)
T2784 001:346 JLINK_WriteReg(R4, 0x00000000)  returns 0x00 (0000ms, 0852ms total)
T2784 001:346 JLINK_WriteReg(R5, 0x00000000)  returns 0x00 (0000ms, 0852ms total)
T2784 001:346 JLINK_WriteReg(R6, 0x00000000)  returns 0x00 (0000ms, 0852ms total)
T2784 001:346 JLINK_WriteReg(R7, 0x00000000)  returns 0x00 (0000ms, 0852ms total)
T2784 001:346 JLINK_WriteReg(R8, 0x00000000)  returns 0x00 (0000ms, 0852ms total)
T2784 001:346 JLINK_WriteReg(R9, 0x2000017C)  returns 0x00 (0000ms, 0852ms total)
T2784 001:346 JLINK_WriteReg(R10, 0x00000000)  returns 0x00 (0000ms, 0852ms total)
T2784 001:346 JLINK_WriteReg(R11, 0x00000000)  returns 0x00 (0000ms, 0852ms total)
T2784 001:346 JLINK_WriteReg(R12, 0x00000000)  returns 0x00 (0000ms, 0852ms total)
T2784 001:346 JLINK_WriteReg(R13 (SP), 0x20001000)  returns 0x00 (0000ms, 0852ms total)
T2784 001:346 JLINK_WriteReg(R14, 0x20000001)  returns 0x00 (0000ms, 0852ms total)
T2784 001:346 JLINK_WriteReg(R15 (PC), 0x20000054)  returns 0x00 (0000ms, 0852ms total)
T2784 001:346 JLINK_WriteReg(XPSR, 0x01000000)  returns 0x00 (0000ms, 0852ms total)
T2784 001:346 JLINK_WriteReg(MSP, 0x20001000)  returns 0x00 (0000ms, 0852ms total)
T2784 001:346 JLINK_WriteReg(PSP, 0x20001000)  returns 0x00 (0000ms, 0852ms total)
T2784 001:346 JLINK_WriteReg(CFBP, 0x00000000)  returns 0x00 (0000ms, 0852ms total)
T2784 001:346 JLINK_SetBPEx(Addr = 0x20000000, Type = 0xFFFFFFF2) -- CPU_ReadMem(2 bytes @ 0x20000000)  returns 0x00000001 (0001ms, 0853ms total)
T2784 001:348 JLINK_Go() -- CPU_WriteMem(2 bytes @ 0x20000000) -- CPU_WriteMem(4 bytes @ 0xE0002008) -- CPU_WriteMem(4 bytes @ 0xE000200C) -- CPU_WriteMem(4 bytes @ 0xE0002010) -- CPU_WriteMem(4 bytes @ 0xE0002014) -- CPU_WriteMem(4 bytes @ 0xE0002018) -- CPU_WriteMem(4 bytes @ 0xE000201C) -- CPU_WriteMem(4 bytes @ 0xE0001004) (0015ms, 0869ms total)
T2784 001:363 JLINK_IsHalted() -- CPU_ReadMem(2 bytes @ 0x20000000)  returns TRUE (0012ms, 0881ms total)
T2784 001:375 JLINK_ReadReg(R15 (PC))  returns 0x20000000 (0000ms, 0869ms total)
T2784 001:375 JLINK_ClrBPEx(BPHandle = 0x00000001)  returns 0x00 (0000ms, 0869ms total)
T2784 001:376 JLINK_ReadReg(R0)  returns 0x00000000 (0000ms, 0870ms total)
T2784 001:376 JLINK_WriteReg(R0, 0x08000000)  returns 0x00 (0000ms, 0870ms total)
T2784 001:376 JLINK_WriteReg(R1, 0x00004000)  returns 0x00 (0000ms, 0870ms total)
T2784 001:376 JLINK_WriteReg(R2, 0x000000FF)  returns 0x00 (0001ms, 0871ms total)
T2784 001:377 JLINK_WriteReg(R3, 0x00000000)  returns 0x00 (0000ms, 0871ms total)
T2784 001:377 JLINK_WriteReg(R4, 0x00000000)  returns 0x00 (0000ms, 0871ms total)
T2784 001:377 JLINK_WriteReg(R5, 0x00000000)  returns 0x00 (0000ms, 0871ms total)
T2784 001:377 JLINK_WriteReg(R6, 0x00000000)  returns 0x00 (0000ms, 0871ms total)
T2784 001:377 JLINK_WriteReg(R7, 0x00000000)  returns 0x00 (0000ms, 0871ms total)
T2784 001:377 JLINK_WriteReg(R8, 0x00000000)  returns 0x00 (0000ms, 0871ms total)
T2784 001:377 JLINK_WriteReg(R9, 0x2000017C)  returns 0x00 (0000ms, 0871ms total)
T2784 001:377 JLINK_WriteReg(R10, 0x00000000)  returns 0x00 (0000ms, 0871ms total)
T2784 001:377 JLINK_WriteReg(R11, 0x00000000)  returns 0x00 (0000ms, 0871ms total)
T2784 001:377 JLINK_WriteReg(R12, 0x00000000)  returns 0x00 (0000ms, 0871ms total)
T2784 001:377 JLINK_WriteReg(R13 (SP), 0x20001000)  returns 0x00 (0000ms, 0871ms total)
T2784 001:377 JLINK_WriteReg(R14, 0x20000001)  returns 0x00 (0000ms, 0871ms total)
T2784 001:377 JLINK_WriteReg(R15 (PC), 0x20000020)  returns 0x00 (0000ms, 0871ms total)
T2784 001:377 JLINK_WriteReg(XPSR, 0x01000000)  returns 0x00 (0001ms, 0872ms total)
T2784 001:378 JLINK_WriteReg(MSP, 0x20001000)  returns 0x00 (0000ms, 0872ms total)
T2784 001:378 JLINK_WriteReg(PSP, 0x20001000)  returns 0x00 (0000ms, 0872ms total)
T2784 001:378 JLINK_WriteReg(CFBP, 0x00000000)  returns 0x00 (0000ms, 0872ms total)
T2784 001:378 JLINK_SetBPEx(Addr = 0x20000000, Type = 0xFFFFFFF2)  returns 0x00000002 (0000ms, 0872ms total)
T2784 001:378 JLINK_Go() (0006ms, 0878ms total)
T2784 001:384 JLINK_IsHalted() -- CPU_ReadMem(2 bytes @ 0x20000000)  returns TRUE (0011ms, 0889ms total)
T2784 001:395 JLINK_ReadReg(R15 (PC))  returns 0x20000000 (0000ms, 0878ms total)
T2784 001:395 JLINK_ClrBPEx(BPHandle = 0x00000002)  returns 0x00 (0000ms, 0878ms total)
T2784 001:395 JLINK_ReadReg(R0)  returns 0x00000001 (0000ms, 0878ms total)
T2784 001:395 JLINK_WriteReg(R0, 0x08000000)  returns 0x00 (0000ms, 0878ms total)
T2784 001:395 JLINK_WriteReg(R1, 0x00004000)  returns 0x00 (0000ms, 0878ms total)
T2784 001:395 JLINK_WriteReg(R2, 0x000000FF)  returns 0x00 (0000ms, 0878ms total)
T2784 001:395 JLINK_WriteReg(R3, 0x00000000)  returns 0x00 (0000ms, 0878ms total)
T2784 001:395 JLINK_WriteReg(R4, 0x00000000)  returns 0x00 (0001ms, 0879ms total)
T2784 001:396 JLINK_WriteReg(R5, 0x00000000)  returns 0x00 (0000ms, 0879ms total)
T2784 001:396 JLINK_WriteReg(R6, 0x00000000)  returns 0x00 (0000ms, 0879ms total)
T2784 001:396 JLINK_WriteReg(R7, 0x00000000)  returns 0x00 (0000ms, 0879ms total)
T2784 001:396 JLINK_WriteReg(R8, 0x00000000)  returns 0x00 (0000ms, 0879ms total)
T2784 001:396 JLINK_WriteReg(R9, 0x2000017C)  returns 0x00 (0000ms, 0879ms total)
T2784 001:396 JLINK_WriteReg(R10, 0x00000000)  returns 0x00 (0000ms, 0879ms total)
T2784 001:396 JLINK_WriteReg(R11, 0x00000000)  returns 0x00 (0000ms, 0879ms total)
T2784 001:396 JLINK_WriteReg(R12, 0x00000000)  returns 0x00 (0000ms, 0879ms total)
T2784 001:396 JLINK_WriteReg(R13 (SP), 0x20001000)  returns 0x00 (0000ms, 0879ms total)
T2784 001:396 JLINK_WriteReg(R14, 0x20000001)  returns 0x00 (0000ms, 0879ms total)
T2784 001:396 JLINK_WriteReg(R15 (PC), 0x200000BC)  returns 0x00 (0000ms, 0879ms total)
T2784 001:396 JLINK_WriteReg(XPSR, 0x01000000)  returns 0x00 (0000ms, 0879ms total)
T2784 001:396 JLINK_WriteReg(MSP, 0x20001000)  returns 0x00 (0000ms, 0879ms total)
T2784 001:396 JLINK_WriteReg(PSP, 0x20001000)  returns 0x00 (0000ms, 0879ms total)
T2784 001:396 JLINK_WriteReg(CFBP, 0x00000000)  returns 0x00 (0001ms, 0880ms total)
T2784 001:397 JLINK_SetBPEx(Addr = 0x20000000, Type = 0xFFFFFFF2)  returns 0x00000003 (0000ms, 0880ms total)
T2784 001:397 JLINK_Go() (0004ms, 0884ms total)
T2784 001:401 JLINK_IsHalted()  returns FALSE (0001ms, 0885ms total)
T2784 001:519 JLINK_IsHalted()  returns FALSE (0001ms, 0885ms total)
T2784 001:562 JLINK_IsHalted()  returns FALSE (0001ms, 0885ms total)
T2784 001:565 JLINK_IsHalted()  returns FALSE (0001ms, 0885ms total)
T2784 001:568 JLINK_IsHalted()  returns FALSE (0001ms, 0885ms total)
T2784 001:571 JLINK_IsHalted()  returns FALSE (0001ms, 0885ms total)
T2784 001:574 JLINK_IsHalted()  returns FALSE (0001ms, 0885ms total)
T2784 001:590 JLINK_IsHalted()  returns FALSE (0001ms, 0885ms total)
T2784 001:593 JLINK_IsHalted()  returns FALSE (0001ms, 0885ms total)
T2784 001:597 JLINK_IsHalted()  returns FALSE (0001ms, 0885ms total)
T2784 001:600 JLINK_IsHalted()  returns FALSE (0001ms, 0885ms total)
T2784 001:603 JLINK_IsHalted()  returns FALSE (0001ms, 0885ms total)
T2784 001:606 JLINK_IsHalted()  returns FALSE (0001ms, 0885ms total)
T2784 001:621 JLINK_IsHalted()  returns FALSE (0001ms, 0885ms total)
T2784 001:624 JLINK_IsHalted()  returns FALSE (0001ms, 0885ms total)
T2784 001:632 JLINK_IsHalted()  returns FALSE (0001ms, 0885ms total)
T2784 001:635 JLINK_IsHalted()  returns FALSE (0001ms, 0885ms total)
T2784 001:650 JLINK_IsHalted()  returns FALSE (0001ms, 0885ms total)
T2784 001:653 JLINK_IsHalted()  returns FALSE (0001ms, 0885ms total)
T2784 001:665 JLINK_IsHalted()  returns FALSE (0001ms, 0885ms total)
T2784 001:668 JLINK_IsHalted()  returns FALSE (0001ms, 0885ms total)
T2784 001:671 JLINK_IsHalted()  returns FALSE (0001ms, 0885ms total)
T2784 001:674 JLINK_IsHalted()  returns FALSE (0001ms, 0885ms total)
T2784 001:677 JLINK_IsHalted()  returns FALSE (0001ms, 0885ms total)
T2784 001:680 JLINK_IsHalted()  returns FALSE (0001ms, 0885ms total)
T2784 001:683 JLINK_IsHalted()  returns FALSE (0001ms, 0885ms total)
T2784 001:704 JLINK_IsHalted()  returns FALSE (0001ms, 0885ms total)
T2784 001:707 JLINK_IsHalted()  returns FALSE (0001ms, 0885ms total)
T2784 001:710 JLINK_IsHalted()  returns FALSE (0001ms, 0885ms total)
T2784 001:713 JLINK_IsHalted()  returns FALSE (0001ms, 0885ms total)
T2784 001:716 JLINK_IsHalted()  returns FALSE (0001ms, 0885ms total)
T2784 001:719 JLINK_IsHalted()  returns FALSE (0001ms, 0885ms total)
T2784 001:736 JLINK_IsHalted() -- CPU_ReadMem(2 bytes @ 0x20000000)  returns TRUE (0012ms, 0896ms total)
T2784 001:748 JLINK_ReadReg(R15 (PC))  returns 0x20000000 (0000ms, 0884ms total)
T2784 001:748 JLINK_ClrBPEx(BPHandle = 0x00000003)  returns 0x00 (0000ms, 0884ms total)
T2784 001:748 JLINK_ReadReg(R0)  returns 0x00000000 (0000ms, 0884ms total)
T2784 001:749 JLINK_WriteReg(R0, 0x08004000)  returns 0x00 (0000ms, 0884ms total)
T2784 001:749 JLINK_WriteReg(R1, 0x00004000)  returns 0x00 (0000ms, 0884ms total)
T2784 001:749 JLINK_WriteReg(R2, 0x000000FF)  returns 0x00 (0000ms, 0884ms total)
T2784 001:749 JLINK_WriteReg(R3, 0x00000000)  returns 0x00 (0000ms, 0884ms total)
T2784 001:749 JLINK_WriteReg(R4, 0x00000000)  returns 0x00 (0000ms, 0884ms total)
T2784 001:749 JLINK_WriteReg(R5, 0x00000000)  returns 0x00 (0000ms, 0884ms total)
T2784 001:749 JLINK_WriteReg(R6, 0x00000000)  returns 0x00 (0000ms, 0884ms total)
T2784 001:749 JLINK_WriteReg(R7, 0x00000000)  returns 0x00 (0000ms, 0884ms total)
T2784 001:749 JLINK_WriteReg(R8, 0x00000000)  returns 0x00 (0000ms, 0884ms total)
T2784 001:749 JLINK_WriteReg(R9, 0x2000017C)  returns 0x00 (0000ms, 0884ms total)
T2784 001:749 JLINK_WriteReg(R10, 0x00000000)  returns 0x00 (0000ms, 0884ms total)
T2784 001:749 JLINK_WriteReg(R11, 0x00000000)  returns 0x00 (0000ms, 0884ms total)
T2784 001:749 JLINK_WriteReg(R12, 0x00000000)  returns 0x00 (0000ms, 0884ms total)
T2784 001:749 JLINK_WriteReg(R13 (SP), 0x20001000)  returns 0x00 (0000ms, 0884ms total)
T2784 001:749 JLINK_WriteReg(R14, 0x20000001)  returns 0x00 (0000ms, 0884ms total)
T2784 001:749 JLINK_WriteReg(R15 (PC), 0x20000020)  returns 0x00 (0000ms, 0884ms total)
T2784 001:749 JLINK_WriteReg(XPSR, 0x01000000)  returns 0x00 (0000ms, 0884ms total)
T2784 001:749 JLINK_WriteReg(MSP, 0x20001000)  returns 0x00 (0000ms, 0884ms total)
T2784 001:749 JLINK_WriteReg(PSP, 0x20001000)  returns 0x00 (0001ms, 0885ms total)
T2784 001:750 JLINK_WriteReg(CFBP, 0x00000000)  returns 0x00 (0000ms, 0885ms total)
T2784 001:750 JLINK_SetBPEx(Addr = 0x20000000, Type = 0xFFFFFFF2)  returns 0x00000004 (0000ms, 0885ms total)
T2784 001:750 JLINK_Go() (0005ms, 0890ms total)
T2784 001:755 JLINK_IsHalted() -- CPU_ReadMem(2 bytes @ 0x20000000)  returns TRUE (0012ms, 0902ms total)
T2784 001:767 JLINK_ReadReg(R15 (PC))  returns 0x20000000 (0000ms, 0890ms total)
T2784 001:768 JLINK_ClrBPEx(BPHandle = 0x00000004)  returns 0x00 (0000ms, 0890ms total)
T2784 001:768 JLINK_ReadReg(R0)  returns 0x00000001 (0000ms, 0890ms total)
T2784 001:768 JLINK_WriteReg(R0, 0x08004000)  returns 0x00 (0000ms, 0890ms total)
T2784 001:768 JLINK_WriteReg(R1, 0x00004000)  returns 0x00 (0000ms, 0890ms total)
T2784 001:768 JLINK_WriteReg(R2, 0x000000FF)  returns 0x00 (0000ms, 0890ms total)
T2784 001:768 JLINK_WriteReg(R3, 0x00000000)  returns 0x00 (0000ms, 0890ms total)
T2784 001:768 JLINK_WriteReg(R4, 0x00000000)  returns 0x00 (0000ms, 0890ms total)
T2784 001:768 JLINK_WriteReg(R5, 0x00000000)  returns 0x00 (0000ms, 0890ms total)
T2784 001:768 JLINK_WriteReg(R6, 0x00000000)  returns 0x00 (0000ms, 0890ms total)
T2784 001:768 JLINK_WriteReg(R7, 0x00000000)  returns 0x00 (0000ms, 0890ms total)
T2784 001:768 JLINK_WriteReg(R8, 0x00000000)  returns 0x00 (0000ms, 0890ms total)
T2784 001:768 JLINK_WriteReg(R9, 0x2000017C)  returns 0x00 (0000ms, 0890ms total)
T2784 001:768 JLINK_WriteReg(R10, 0x00000000)  returns 0x00 (0000ms, 0890ms total)
T2784 001:768 JLINK_WriteReg(R11, 0x00000000)  returns 0x00 (0000ms, 0890ms total)
T2784 001:768 JLINK_WriteReg(R12, 0x00000000)  returns 0x00 (0000ms, 0890ms total)
T2784 001:768 JLINK_WriteReg(R13 (SP), 0x20001000)  returns 0x00 (0000ms, 0890ms total)
T2784 001:768 JLINK_WriteReg(R14, 0x20000001)  returns 0x00 (0000ms, 0890ms total)
T2784 001:768 JLINK_WriteReg(R15 (PC), 0x200000BC)  returns 0x00 (0000ms, 0890ms total)
T2784 001:768 JLINK_WriteReg(XPSR, 0x01000000)  returns 0x00 (0000ms, 0890ms total)
T2784 001:768 JLINK_WriteReg(MSP, 0x20001000)  returns 0x00 (0000ms, 0890ms total)
T2784 001:768 JLINK_WriteReg(PSP, 0x20001000)  returns 0x00 (0000ms, 0890ms total)
T2784 001:768 JLINK_WriteReg(CFBP, 0x00000000)  returns 0x00 (0001ms, 0891ms total)
T2784 001:769 JLINK_SetBPEx(Addr = 0x20000000, Type = 0xFFFFFFF2)  returns 0x00000005 (0000ms, 0891ms total)
T2784 001:769 JLINK_Go() (0004ms, 0895ms total)
T2784 001:773 JLINK_IsHalted()  returns FALSE (0001ms, 0896ms total)
T2784 001:809 JLINK_IsHalted()  returns FALSE (0001ms, 0896ms total)
T2784 001:812 JLINK_IsHalted()  returns FALSE (0001ms, 0896ms total)
T2784 001:815 JLINK_IsHalted()  returns FALSE (0001ms, 0896ms total)
T2784 001:818 JLINK_IsHalted()  returns FALSE (0001ms, 0896ms total)
T2784 001:821 JLINK_IsHalted()  returns FALSE (0001ms, 0896ms total)
T2784 001:824 JLINK_IsHalted()  returns FALSE (0001ms, 0896ms total)
T2784 001:838 JLINK_IsHalted()  returns FALSE (0001ms, 0896ms total)
T2784 001:841 JLINK_IsHalted()  returns FALSE (0001ms, 0896ms total)
T2784 001:844 JLINK_IsHalted()  returns FALSE (0001ms, 0896ms total)
T2784 001:850 JLINK_IsHalted()  returns FALSE (0001ms, 0896ms total)
T2784 001:853 JLINK_IsHalted()  returns FALSE (0001ms, 0896ms total)
T2784 001:866 JLINK_IsHalted()  returns FALSE (0001ms, 0896ms total)
T2784 001:869 JLINK_IsHalted()  returns FALSE (0001ms, 0896ms total)
T2784 001:872 JLINK_IsHalted()  returns FALSE (0001ms, 0896ms total)
T2784 001:882 JLINK_IsHalted()  returns FALSE (0001ms, 0896ms total)
T2784 001:885 JLINK_IsHalted()  returns FALSE (0001ms, 0896ms total)
T2784 001:888 JLINK_IsHalted()  returns FALSE (0001ms, 0896ms total)
T2784 001:891 JLINK_IsHalted()  returns FALSE (0001ms, 0896ms total)
T2784 001:894 JLINK_IsHalted()  returns FALSE (0001ms, 0896ms total)
T2784 001:897 JLINK_IsHalted()  returns FALSE (0001ms, 0896ms total)
T2784 001:900 JLINK_IsHalted()  returns FALSE (0001ms, 0896ms total)
T2784 001:903 JLINK_IsHalted()  returns FALSE (0001ms, 0896ms total)
T2784 001:921 JLINK_IsHalted()  returns FALSE (0001ms, 0896ms total)
T2784 001:924 JLINK_IsHalted()  returns FALSE (0001ms, 0896ms total)
T2784 001:927 JLINK_IsHalted()  returns FALSE (0001ms, 0896ms total)
T2784 001:930 JLINK_IsHalted()  returns FALSE (0001ms, 0896ms total)
T2784 001:933 JLINK_IsHalted()  returns FALSE (0001ms, 0896ms total)
T2784 001:950 JLINK_IsHalted()  returns FALSE (0001ms, 0896ms total)
T2784 001:956 JLINK_IsHalted()  returns FALSE (0001ms, 0896ms total)
T2784 001:959 JLINK_IsHalted()  returns FALSE (0001ms, 0896ms total)
T2784 001:962 JLINK_IsHalted()  returns FALSE (0001ms, 0896ms total)
T2784 001:977 JLINK_IsHalted()  returns FALSE (0001ms, 0896ms total)
T2784 001:980 JLINK_IsHalted()  returns FALSE (0001ms, 0896ms total)
T2784 001:993 JLINK_IsHalted()  returns FALSE (0001ms, 0896ms total)
T2784 001:996 JLINK_IsHalted()  returns FALSE (0001ms, 0896ms total)
T2784 001:999 JLINK_IsHalted()  returns FALSE (0001ms, 0896ms total)
T2784 002:002 JLINK_IsHalted()  returns FALSE (0001ms, 0896ms total)
T2784 002:005 JLINK_IsHalted()  returns FALSE (0001ms, 0896ms total)
T2784 002:008 JLINK_IsHalted()  returns FALSE (0001ms, 0896ms total)
T2784 002:011 JLINK_IsHalted()  returns FALSE (0001ms, 0896ms total)
T2784 002:029 JLINK_IsHalted()  returns FALSE (0001ms, 0896ms total)
T2784 002:032 JLINK_IsHalted()  returns FALSE (0001ms, 0896ms total)
T2784 002:035 JLINK_IsHalted()  returns FALSE (0001ms, 0896ms total)
T2784 002:038 JLINK_IsHalted()  returns FALSE (0001ms, 0896ms total)
T2784 002:041 JLINK_IsHalted()  returns FALSE (0001ms, 0896ms total)
T2784 002:061 JLINK_IsHalted()  returns FALSE (0001ms, 0896ms total)
T2784 002:067 JLINK_IsHalted()  returns FALSE (0001ms, 0896ms total)
T2784 002:070 JLINK_IsHalted()  returns FALSE (0001ms, 0896ms total)
T2784 002:073 JLINK_IsHalted()  returns FALSE (0001ms, 0896ms total)
T2784 002:076 JLINK_IsHalted()  returns FALSE (0001ms, 0896ms total)
T2784 002:090 JLINK_IsHalted()  returns FALSE (0001ms, 0896ms total)
T2784 002:103 JLINK_IsHalted() -- CPU_ReadMem(2 bytes @ 0x20000000)  returns TRUE (0012ms, 0907ms total)
T2784 002:115 JLINK_ReadReg(R15 (PC))  returns 0x20000000 (0000ms, 0895ms total)
T2784 002:115 JLINK_ClrBPEx(BPHandle = 0x00000005)  returns 0x00 (0000ms, 0895ms total)
T2784 002:115 JLINK_ReadReg(R0)  returns 0x00000000 (0000ms, 0895ms total)
T2784 002:116 JLINK_WriteReg(R0, 0x08008000)  returns 0x00 (0000ms, 0895ms total)
T2784 002:116 JLINK_WriteReg(R1, 0x00004000)  returns 0x00 (0000ms, 0895ms total)
T2784 002:116 JLINK_WriteReg(R2, 0x000000FF)  returns 0x00 (0000ms, 0895ms total)
T2784 002:116 JLINK_WriteReg(R3, 0x00000000)  returns 0x00 (0000ms, 0895ms total)
T2784 002:116 JLINK_WriteReg(R4, 0x00000000)  returns 0x00 (0000ms, 0895ms total)
T2784 002:116 JLINK_WriteReg(R5, 0x00000000)  returns 0x00 (0000ms, 0895ms total)
T2784 002:116 JLINK_WriteReg(R6, 0x00000000)  returns 0x00 (0000ms, 0895ms total)
T2784 002:116 JLINK_WriteReg(R7, 0x00000000)  returns 0x00 (0000ms, 0895ms total)
T2784 002:116 JLINK_WriteReg(R8, 0x00000000)  returns 0x00 (0000ms, 0895ms total)
T2784 002:116 JLINK_WriteReg(R9, 0x2000017C)  returns 0x00 (0000ms, 0895ms total)
T2784 002:116 JLINK_WriteReg(R10, 0x00000000)  returns 0x00 (0000ms, 0895ms total)
T2784 002:116 JLINK_WriteReg(R11, 0x00000000)  returns 0x00 (0000ms, 0895ms total)
T2784 002:116 JLINK_WriteReg(R12, 0x00000000)  returns 0x00 (0000ms, 0895ms total)
T2784 002:116 JLINK_WriteReg(R13 (SP), 0x20001000)  returns 0x00 (0000ms, 0895ms total)
T2784 002:117 JLINK_WriteReg(R14, 0x20000001)  returns 0x00 (0000ms, 0896ms total)
T2784 002:117 JLINK_WriteReg(R15 (PC), 0x20000020)  returns 0x00 (0000ms, 0896ms total)
T2784 002:117 JLINK_WriteReg(XPSR, 0x01000000)  returns 0x00 (0000ms, 0896ms total)
T2784 002:117 JLINK_WriteReg(MSP, 0x20001000)  returns 0x00 (0000ms, 0896ms total)
T2784 002:117 JLINK_WriteReg(PSP, 0x20001000)  returns 0x00 (0000ms, 0896ms total)
T2784 002:117 JLINK_WriteReg(CFBP, 0x00000000)  returns 0x00 (0000ms, 0896ms total)
T2784 002:117 JLINK_SetBPEx(Addr = 0x20000000, Type = 0xFFFFFFF2)  returns 0x00000006 (0000ms, 0896ms total)
T2784 002:117 JLINK_Go() (0005ms, 0901ms total)
T2784 002:122 JLINK_IsHalted() -- CPU_ReadMem(2 bytes @ 0x20000000)  returns TRUE (0013ms, 0914ms total)
T2784 002:135 JLINK_ReadReg(R15 (PC))  returns 0x20000000 (0000ms, 0901ms total)
T2784 002:135 JLINK_ClrBPEx(BPHandle = 0x00000006)  returns 0x00 (0000ms, 0901ms total)
T2784 002:135 JLINK_ReadReg(R0)  returns 0x00000001 (0000ms, 0901ms total)
T2784 002:135 JLINK_WriteReg(R0, 0x08008000)  returns 0x00 (0000ms, 0901ms total)
T2784 002:135 JLINK_WriteReg(R1, 0x00004000)  returns 0x00 (0000ms, 0901ms total)
T2784 002:135 JLINK_WriteReg(R2, 0x000000FF)  returns 0x00 (0000ms, 0901ms total)
T2784 002:135 JLINK_WriteReg(R3, 0x00000000)  returns 0x00 (0000ms, 0901ms total)
T2784 002:135 JLINK_WriteReg(R4, 0x00000000)  returns 0x00 (0000ms, 0901ms total)
T2784 002:135 JLINK_WriteReg(R5, 0x00000000)  returns 0x00 (0001ms, 0902ms total)
T2784 002:136 JLINK_WriteReg(R6, 0x00000000)  returns 0x00 (0000ms, 0902ms total)
T2784 002:136 JLINK_WriteReg(R7, 0x00000000)  returns 0x00 (0000ms, 0902ms total)
T2784 002:136 JLINK_WriteReg(R8, 0x00000000)  returns 0x00 (0000ms, 0902ms total)
T2784 002:136 JLINK_WriteReg(R9, 0x2000017C)  returns 0x00 (0000ms, 0902ms total)
T2784 002:136 JLINK_WriteReg(R10, 0x00000000)  returns 0x00 (0000ms, 0902ms total)
T2784 002:136 JLINK_WriteReg(R11, 0x00000000)  returns 0x00 (0000ms, 0902ms total)
T2784 002:136 JLINK_WriteReg(R12, 0x00000000)  returns 0x00 (0000ms, 0902ms total)
T2784 002:136 JLINK_WriteReg(R13 (SP), 0x20001000)  returns 0x00 (0000ms, 0902ms total)
T2784 002:136 JLINK_WriteReg(R14, 0x20000001)  returns 0x00 (0000ms, 0902ms total)
T2784 002:136 JLINK_WriteReg(R15 (PC), 0x200000BC)  returns 0x00 (0000ms, 0902ms total)
T2784 002:136 JLINK_WriteReg(XPSR, 0x01000000)  returns 0x00 (0000ms, 0902ms total)
T2784 002:136 JLINK_WriteReg(MSP, 0x20001000)  returns 0x00 (0000ms, 0902ms total)
T2784 002:136 JLINK_WriteReg(PSP, 0x20001000)  returns 0x00 (0000ms, 0902ms total)
T2784 002:136 JLINK_WriteReg(CFBP, 0x00000000)  returns 0x00 (0001ms, 0903ms total)
T2784 002:137 JLINK_SetBPEx(Addr = 0x20000000, Type = 0xFFFFFFF2)  returns 0x00000007 (0000ms, 0903ms total)
T2784 002:137 JLINK_Go() (0004ms, 0907ms total)
T2784 002:141 JLINK_IsHalted()  returns FALSE (0001ms, 0908ms total)
T2784 002:177 JLINK_IsHalted()  returns FALSE (0001ms, 0908ms total)
T2784 002:180 JLINK_IsHalted()  returns FALSE (0001ms, 0908ms total)
T2784 002:183 JLINK_IsHalted()  returns FALSE (0001ms, 0908ms total)
T2784 002:186 JLINK_IsHalted()  returns FALSE (0001ms, 0908ms total)
T2784 002:208 JLINK_IsHalted()  returns FALSE (0001ms, 0908ms total)
T2784 002:211 JLINK_IsHalted()  returns FALSE (0001ms, 0908ms total)
T2784 002:214 JLINK_IsHalted()  returns FALSE (0001ms, 0908ms total)
T2784 002:217 JLINK_IsHalted()  returns FALSE (0001ms, 0908ms total)
T2784 002:220 JLINK_IsHalted()  returns FALSE (0001ms, 0908ms total)
T2784 002:223 JLINK_IsHalted()  returns FALSE (0001ms, 0908ms total)
T2784 002:226 JLINK_IsHalted()  returns FALSE (0001ms, 0908ms total)
T2784 002:229 JLINK_IsHalted()  returns FALSE (0001ms, 0908ms total)
T2784 002:247 JLINK_IsHalted()  returns FALSE (0001ms, 0908ms total)
T2784 002:250 JLINK_IsHalted()  returns FALSE (0001ms, 0908ms total)
T2784 002:253 JLINK_IsHalted()  returns FALSE (0001ms, 0908ms total)
T2784 002:256 JLINK_IsHalted()  returns FALSE (0001ms, 0908ms total)
T2784 002:259 JLINK_IsHalted()  returns FALSE (0001ms, 0908ms total)
T2784 002:272 JLINK_IsHalted()  returns FALSE (0001ms, 0908ms total)
T2784 002:275 JLINK_IsHalted()  returns FALSE (0001ms, 0908ms total)
T2784 002:278 JLINK_IsHalted()  returns FALSE (0001ms, 0908ms total)
T2784 002:286 JLINK_IsHalted()  returns FALSE (0001ms, 0908ms total)
T2784 002:289 JLINK_IsHalted()  returns FALSE (0001ms, 0908ms total)
T2784 002:292 JLINK_IsHalted()  returns FALSE (0001ms, 0908ms total)
T2784 002:305 JLINK_IsHalted()  returns FALSE (0001ms, 0908ms total)
T2784 002:308 JLINK_IsHalted()  returns FALSE (0001ms, 0908ms total)
T2784 002:311 JLINK_IsHalted()  returns FALSE (0001ms, 0908ms total)
T2784 002:321 JLINK_IsHalted()  returns FALSE (0001ms, 0908ms total)
T2784 002:324 JLINK_IsHalted()  returns FALSE (0001ms, 0908ms total)
T2784 002:327 JLINK_IsHalted()  returns FALSE (0001ms, 0908ms total)
T2784 002:330 JLINK_IsHalted()  returns FALSE (0001ms, 0908ms total)
T2784 002:333 JLINK_IsHalted()  returns FALSE (0001ms, 0908ms total)
T2784 002:336 JLINK_IsHalted()  returns FALSE (0001ms, 0908ms total)
T2784 002:339 JLINK_IsHalted()  returns FALSE (0001ms, 0908ms total)
T2784 002:342 JLINK_IsHalted()  returns FALSE (0001ms, 0908ms total)
T2784 002:345 JLINK_IsHalted()  returns FALSE (0001ms, 0908ms total)
T2784 002:364 JLINK_IsHalted()  returns FALSE (0001ms, 0908ms total)
T2784 002:367 JLINK_IsHalted()  returns FALSE (0001ms, 0908ms total)
T2784 002:370 JLINK_IsHalted()  returns FALSE (0001ms, 0908ms total)
T2784 002:373 JLINK_IsHalted()  returns FALSE (0001ms, 0908ms total)
T2784 002:386 JLINK_IsHalted()  returns FALSE (0001ms, 0908ms total)
T2784 002:393 JLINK_IsHalted()  returns FALSE (0001ms, 0908ms total)
T2784 002:396 JLINK_IsHalted()  returns FALSE (0001ms, 0908ms total)
T2784 002:399 JLINK_IsHalted()  returns FALSE (0001ms, 0908ms total)
T2784 002:402 JLINK_IsHalted()  returns FALSE (0001ms, 0908ms total)
T2784 002:405 JLINK_IsHalted()  returns FALSE (0001ms, 0908ms total)
T2784 002:427 JLINK_IsHalted()  returns FALSE (0001ms, 0908ms total)
T2784 002:430 JLINK_IsHalted()  returns FALSE (0001ms, 0908ms total)
T2784 002:433 JLINK_IsHalted()  returns FALSE (0001ms, 0908ms total)
T2784 002:436 JLINK_IsHalted()  returns FALSE (0001ms, 0908ms total)
T2784 002:440 JLINK_IsHalted()  returns FALSE (0001ms, 0908ms total)
T2784 002:443 JLINK_IsHalted()  returns FALSE (0001ms, 0908ms total)
T2784 002:446 JLINK_IsHalted()  returns FALSE (0001ms, 0908ms total)
T2784 002:463 JLINK_IsHalted() -- CPU_ReadMem(2 bytes @ 0x20000000)  returns TRUE (0012ms, 0919ms total)
T2784 002:475 JLINK_ReadReg(R15 (PC))  returns 0x20000000 (0000ms, 0907ms total)
T2784 002:475 JLINK_ClrBPEx(BPHandle = 0x00000007)  returns 0x00 (0000ms, 0907ms total)
T2784 002:475 JLINK_ReadReg(R0)  returns 0x00000000 (0000ms, 0907ms total)
T2784 002:475 JLINK_WriteReg(R0, 0x00000001)  returns 0x00 (0001ms, 0908ms total)
T2784 002:476 JLINK_WriteReg(R1, 0x00004000)  returns 0x00 (0000ms, 0908ms total)
T2784 002:476 JLINK_WriteReg(R2, 0x000000FF)  returns 0x00 (0000ms, 0908ms total)
T2784 002:476 JLINK_WriteReg(R3, 0x00000000)  returns 0x00 (0000ms, 0908ms total)
T2784 002:476 JLINK_WriteReg(R4, 0x00000000)  returns 0x00 (0000ms, 0908ms total)
T2784 002:476 JLINK_WriteReg(R5, 0x00000000)  returns 0x00 (0000ms, 0908ms total)
T2784 002:476 JLINK_WriteReg(R6, 0x00000000)  returns 0x00 (0000ms, 0908ms total)
T2784 002:476 JLINK_WriteReg(R7, 0x00000000)  returns 0x00 (0000ms, 0908ms total)
T2784 002:476 JLINK_WriteReg(R8, 0x00000000)  returns 0x00 (0000ms, 0908ms total)
T2784 002:476 JLINK_WriteReg(R9, 0x2000017C)  returns 0x00 (0000ms, 0908ms total)
T2784 002:476 JLINK_WriteReg(R10, 0x00000000)  returns 0x00 (0000ms, 0908ms total)
T2784 002:476 JLINK_WriteReg(R11, 0x00000000)  returns 0x00 (0000ms, 0908ms total)
T2784 002:476 JLINK_WriteReg(R12, 0x00000000)  returns 0x00 (0000ms, 0908ms total)
T2784 002:476 JLINK_WriteReg(R13 (SP), 0x20001000)  returns 0x00 (0000ms, 0908ms total)
T2784 002:476 JLINK_WriteReg(R14, 0x20000001)  returns 0x00 (0000ms, 0908ms total)
T2784 002:476 JLINK_WriteReg(R15 (PC), 0x20000082)  returns 0x00 (0000ms, 0908ms total)
T2784 002:476 JLINK_WriteReg(XPSR, 0x01000000)  returns 0x00 (0000ms, 0908ms total)
T2784 002:476 JLINK_WriteReg(MSP, 0x20001000)  returns 0x00 (0000ms, 0908ms total)
T2784 002:476 JLINK_WriteReg(PSP, 0x20001000)  returns 0x00 (0000ms, 0908ms total)
T2784 002:476 JLINK_WriteReg(CFBP, 0x00000000)  returns 0x00 (0000ms, 0908ms total)
T2784 002:476 JLINK_SetBPEx(Addr = 0x20000000, Type = 0xFFFFFFF2)  returns 0x00000008 (0000ms, 0908ms total)
T2784 002:477 JLINK_Go() (0005ms, 0914ms total)
T2784 002:482 JLINK_IsHalted() -- CPU_ReadMem(2 bytes @ 0x20000000)  returns TRUE (0012ms, 0926ms total)
T2784 002:494 JLINK_ReadReg(R15 (PC))  returns 0x20000000 (0000ms, 0914ms total)
T2784 002:494 JLINK_ClrBPEx(BPHandle = 0x00000008)  returns 0x00 (0000ms, 0914ms total)
T2784 002:494 JLINK_ReadReg(R0)  returns 0x00000000 (0000ms, 0914ms total)
T2784 002:552 JLINK_WriteMem(0x20000000, 0x0180 Bytes, ...) - Data: 00 BE 0A E0 0D 78 2D 06 68 40 08 24 40 00 00 D3 ... -- CPU_WriteMem(384 bytes @ 0x20000000)  returns 0x180 (0018ms, 0933ms total)
T2784 002:570 JLINK_WriteReg(R0, 0x08000000)  returns 0x00 (0001ms, 0934ms total)
T2784 002:571 JLINK_WriteReg(R1, 0x0A037A00)  returns 0x00 (0000ms, 0934ms total)
T2784 002:571 JLINK_WriteReg(R2, 0x00000002)  returns 0x00 (0000ms, 0934ms total)
T2784 002:571 JLINK_WriteReg(R3, 0x00000000)  returns 0x00 (0000ms, 0934ms total)
T2784 002:571 JLINK_WriteReg(R4, 0x00000000)  returns 0x00 (0000ms, 0934ms total)
T2784 002:571 JLINK_WriteReg(R5, 0x00000000)  returns 0x00 (0000ms, 0934ms total)
T2784 002:571 JLINK_WriteReg(R6, 0x00000000)  returns 0x00 (0000ms, 0934ms total)
T2784 002:571 JLINK_WriteReg(R7, 0x00000000)  returns 0x00 (0000ms, 0934ms total)
T2784 002:571 JLINK_WriteReg(R8, 0x00000000)  returns 0x00 (0000ms, 0934ms total)
T2784 002:571 JLINK_WriteReg(R9, 0x2000017C)  returns 0x00 (0000ms, 0934ms total)
T2784 002:571 JLINK_WriteReg(R10, 0x00000000)  returns 0x00 (0000ms, 0934ms total)
T2784 002:571 JLINK_WriteReg(R11, 0x00000000)  returns 0x00 (0000ms, 0934ms total)
T2784 002:571 JLINK_WriteReg(R12, 0x00000000)  returns 0x00 (0000ms, 0934ms total)
T2784 002:571 JLINK_WriteReg(R13 (SP), 0x20001000)  returns 0x00 (0000ms, 0934ms total)
T2784 002:571 JLINK_WriteReg(R14, 0x20000001)  returns 0x00 (0000ms, 0934ms total)
T2784 002:571 JLINK_WriteReg(R15 (PC), 0x20000054)  returns 0x00 (0000ms, 0934ms total)
T2784 002:571 JLINK_WriteReg(XPSR, 0x01000000)  returns 0x00 (0000ms, 0934ms total)
T2784 002:571 JLINK_WriteReg(MSP, 0x20001000)  returns 0x00 (0000ms, 0934ms total)
T2784 002:571 JLINK_WriteReg(PSP, 0x20001000)  returns 0x00 (0000ms, 0934ms total)
T2784 002:571 JLINK_WriteReg(CFBP, 0x00000000)  returns 0x00 (0000ms, 0934ms total)
T2784 002:571 JLINK_SetBPEx(Addr = 0x20000000, Type = 0xFFFFFFF2) -- CPU_ReadMem(2 bytes @ 0x20000000)  returns 0x00000009 (0002ms, 0936ms total)
T2784 002:573 JLINK_Go() -- CPU_WriteMem(2 bytes @ 0x20000000) (0006ms, 0942ms total)
T2784 002:579 JLINK_IsHalted() -- CPU_ReadMem(2 bytes @ 0x20000000)  returns TRUE (0012ms, 0954ms total)
T2784 002:591 JLINK_ReadReg(R15 (PC))  returns 0x20000000 (0000ms, 0942ms total)
T2784 002:591 JLINK_ClrBPEx(BPHandle = 0x00000009)  returns 0x00 (0000ms, 0942ms total)
T2784 002:591 JLINK_ReadReg(R0)  returns 0x00000000 (0000ms, 0942ms total)
T2784 002:591 JLINK_WriteMem(0x20000180, 0x0400 Bytes, ...) - Data: D8 F8 01 20 A1 5F 00 08 91 0A 00 08 93 0A 00 08 ... -- CPU_WriteMem(1024 bytes @ 0x20000180)  returns 0x400 (0046ms, 0988ms total)
T2784 002:637 JLINK_WriteReg(R0, 0x08000000)  returns 0x00 (0000ms, 0988ms total)
T2784 002:637 JLINK_WriteReg(R1, 0x00000400)  returns 0x00 (0000ms, 0988ms total)
T2784 002:637 JLINK_WriteReg(R2, 0x20000180)  returns 0x00 (0000ms, 0988ms total)
T2784 002:637 JLINK_WriteReg(R3, 0x00000000)  returns 0x00 (0000ms, 0988ms total)
T2784 002:637 JLINK_WriteReg(R4, 0x00000000)  returns 0x00 (0000ms, 0988ms total)
T2784 002:637 JLINK_WriteReg(R5, 0x00000000)  returns 0x00 (0000ms, 0988ms total)
T2784 002:638 JLINK_WriteReg(R6, 0x00000000)  returns 0x00 (0000ms, 0989ms total)
T2784 002:638 JLINK_WriteReg(R7, 0x00000000)  returns 0x00 (0000ms, 0989ms total)
T2784 002:638 JLINK_WriteReg(R8, 0x00000000)  returns 0x00 (0000ms, 0989ms total)
T2784 002:638 JLINK_WriteReg(R9, 0x2000017C)  returns 0x00 (0000ms, 0989ms total)
T2784 002:638 JLINK_WriteReg(R10, 0x00000000)  returns 0x00 (0000ms, 0989ms total)
T2784 002:638 JLINK_WriteReg(R11, 0x00000000)  returns 0x00 (0000ms, 0989ms total)
T2784 002:638 JLINK_WriteReg(R12, 0x00000000)  returns 0x00 (0000ms, 0989ms total)
T2784 002:638 JLINK_WriteReg(R13 (SP), 0x20001000)  returns 0x00 (0000ms, 0989ms total)
T2784 002:638 JLINK_WriteReg(R14, 0x20000001)  returns 0x00 (0000ms, 0989ms total)
T2784 002:638 JLINK_WriteReg(R15 (PC), 0x20000108)  returns 0x00 (0000ms, 0989ms total)
T2784 002:638 JLINK_WriteReg(XPSR, 0x01000000)  returns 0x00 (0000ms, 0989ms total)
T2784 002:638 JLINK_WriteReg(MSP, 0x20001000)  returns 0x00 (0000ms, 0989ms total)
T2784 002:638 JLINK_WriteReg(PSP, 0x20001000)  returns 0x00 (0000ms, 0989ms total)
T2784 002:638 JLINK_WriteReg(CFBP, 0x00000000)  returns 0x00 (0000ms, 0989ms total)
T2784 002:638 JLINK_SetBPEx(Addr = 0x20000000, Type = 0xFFFFFFF2)  returns 0x0000000A (0000ms, 0989ms total)
T2784 002:638 JLINK_Go() (0005ms, 0994ms total)
T2784 002:643 JLINK_IsHalted()  returns FALSE (0001ms, 0995ms total)
T2784 002:711 JLINK_IsHalted() -- CPU_ReadMem(2 bytes @ 0x20000000)  returns TRUE (0012ms, 1006ms total)
T2784 002:723 JLINK_ReadReg(R15 (PC))  returns 0x20000000 (0000ms, 0994ms total)
T2784 002:723 JLINK_ClrBPEx(BPHandle = 0x0000000A)  returns 0x00 (0000ms, 0994ms total)
T2784 002:723 JLINK_ReadReg(R0)  returns 0x00000000 (0000ms, 0994ms total)
T2784 002:724 JLINK_WriteMem(0x20000180, 0x0400 Bytes, ...) - Data: 49 00 0F FA 80 FA A6 E0 0A 98 E0 B3 07 EB 05 0C ... -- CPU_WriteMem(1024 bytes @ 0x20000180)  returns 0x400 (0046ms, 1040ms total)
T2784 002:770 JLINK_WriteReg(R0, 0x08000400)  returns 0x00 (0000ms, 1040ms total)
T2784 002:770 JLINK_WriteReg(R1, 0x00000400)  returns 0x00 (0000ms, 1040ms total)
T2784 002:770 JLINK_WriteReg(R2, 0x20000180)  returns 0x00 (0000ms, 1040ms total)
T2784 002:770 JLINK_WriteReg(R3, 0x00000000)  returns 0x00 (0000ms, 1040ms total)
T2784 002:770 JLINK_WriteReg(R4, 0x00000000)  returns 0x00 (0000ms, 1040ms total)
T2784 002:770 JLINK_WriteReg(R5, 0x00000000)  returns 0x00 (0000ms, 1040ms total)
T2784 002:770 JLINK_WriteReg(R6, 0x00000000)  returns 0x00 (0000ms, 1040ms total)
T2784 002:770 JLINK_WriteReg(R7, 0x00000000)  returns 0x00 (0000ms, 1040ms total)
T2784 002:770 JLINK_WriteReg(R8, 0x00000000)  returns 0x00 (0000ms, 1040ms total)
T2784 002:770 JLINK_WriteReg(R9, 0x2000017C)  returns 0x00 (0000ms, 1040ms total)
T2784 002:770 JLINK_WriteReg(R10, 0x00000000)  returns 0x00 (0000ms, 1040ms total)
T2784 002:770 JLINK_WriteReg(R11, 0x00000000)  returns 0x00 (0000ms, 1040ms total)
T2784 002:770 JLINK_WriteReg(R12, 0x00000000)  returns 0x00 (0000ms, 1040ms total)
T2784 002:770 JLINK_WriteReg(R13 (SP), 0x20001000)  returns 0x00 (0000ms, 1040ms total)
T2784 002:770 JLINK_WriteReg(R14, 0x20000001)  returns 0x00 (0000ms, 1040ms total)
T2784 002:770 JLINK_WriteReg(R15 (PC), 0x20000108)  returns 0x00 (0000ms, 1040ms total)
T2784 002:770 JLINK_WriteReg(XPSR, 0x01000000)  returns 0x00 (0000ms, 1040ms total)
T2784 002:770 JLINK_WriteReg(MSP, 0x20001000)  returns 0x00 (0000ms, 1040ms total)
T2784 002:770 JLINK_WriteReg(PSP, 0x20001000)  returns 0x00 (0000ms, 1040ms total)
T2784 002:770 JLINK_WriteReg(CFBP, 0x00000000)  returns 0x00 (0000ms, 1040ms total)
T2784 002:770 JLINK_SetBPEx(Addr = 0x20000000, Type = 0xFFFFFFF2)  returns 0x0000000B (0001ms, 1041ms total)
T2784 002:771 JLINK_Go() (0005ms, 1046ms total)
T2784 002:776 JLINK_IsHalted()  returns FALSE (0001ms, 1047ms total)
T2784 002:835 JLINK_IsHalted() -- CPU_ReadMem(2 bytes @ 0x20000000)  returns TRUE (0012ms, 1058ms total)
T2784 002:847 JLINK_ReadReg(R15 (PC))  returns 0x20000000 (0000ms, 1046ms total)
T2784 002:847 JLINK_ClrBPEx(BPHandle = 0x0000000B)  returns 0x00 (0000ms, 1046ms total)
T2784 002:847 JLINK_ReadReg(R0)  returns 0x00000000 (0000ms, 1046ms total)
T2784 002:848 JLINK_WriteMem(0x20000180, 0x0400 Bytes, ...) - Data: 01 F0 37 FE 01 F0 C7 FE 93 48 00 68 01 F0 6C FF ... -- CPU_WriteMem(1024 bytes @ 0x20000180)  returns 0x400 (0045ms, 1091ms total)
T2784 002:893 JLINK_WriteReg(R0, 0x08000800)  returns 0x00 (0001ms, 1092ms total)
T2784 002:894 JLINK_WriteReg(R1, 0x00000400)  returns 0x00 (0000ms, 1092ms total)
T2784 002:894 JLINK_WriteReg(R2, 0x20000180)  returns 0x00 (0000ms, 1092ms total)
T2784 002:894 JLINK_WriteReg(R3, 0x00000000)  returns 0x00 (0000ms, 1092ms total)
T2784 002:894 JLINK_WriteReg(R4, 0x00000000)  returns 0x00 (0000ms, 1092ms total)
T2784 002:894 JLINK_WriteReg(R5, 0x00000000)  returns 0x00 (0000ms, 1092ms total)
T2784 002:894 JLINK_WriteReg(R6, 0x00000000)  returns 0x00 (0000ms, 1092ms total)
T2784 002:894 JLINK_WriteReg(R7, 0x00000000)  returns 0x00 (0000ms, 1092ms total)
T2784 002:894 JLINK_WriteReg(R8, 0x00000000)  returns 0x00 (0000ms, 1092ms total)
T2784 002:894 JLINK_WriteReg(R9, 0x2000017C)  returns 0x00 (0000ms, 1092ms total)
T2784 002:894 JLINK_WriteReg(R10, 0x00000000)  returns 0x00 (0000ms, 1092ms total)
T2784 002:894 JLINK_WriteReg(R11, 0x00000000)  returns 0x00 (0000ms, 1092ms total)
T2784 002:894 JLINK_WriteReg(R12, 0x00000000)  returns 0x00 (0000ms, 1092ms total)
T2784 002:894 JLINK_WriteReg(R13 (SP), 0x20001000)  returns 0x00 (0000ms, 1092ms total)
T2784 002:894 JLINK_WriteReg(R14, 0x20000001)  returns 0x00 (0000ms, 1092ms total)
T2784 002:894 JLINK_WriteReg(R15 (PC), 0x20000108)  returns 0x00 (0001ms, 1093ms total)
T2784 002:895 JLINK_WriteReg(XPSR, 0x01000000)  returns 0x00 (0000ms, 1093ms total)
T2784 002:895 JLINK_WriteReg(MSP, 0x20001000)  returns 0x00 (0000ms, 1093ms total)
T2784 002:895 JLINK_WriteReg(PSP, 0x20001000)  returns 0x00 (0000ms, 1093ms total)
T2784 002:895 JLINK_WriteReg(CFBP, 0x00000000)  returns 0x00 (0000ms, 1093ms total)
T2784 002:895 JLINK_SetBPEx(Addr = 0x20000000, Type = 0xFFFFFFF2)  returns 0x0000000C (0000ms, 1093ms total)
T2784 002:895 JLINK_Go() (0005ms, 1098ms total)
T2784 002:900 JLINK_IsHalted()  returns FALSE (0001ms, 1099ms total)
T2784 002:950 JLINK_IsHalted() -- CPU_ReadMem(2 bytes @ 0x20000000)  returns TRUE (0012ms, 1110ms total)
T2784 002:962 JLINK_ReadReg(R15 (PC))  returns 0x20000000 (0000ms, 1098ms total)
T2784 002:962 JLINK_ClrBPEx(BPHandle = 0x0000000C)  returns 0x00 (0000ms, 1098ms total)
T2784 002:962 JLINK_ReadReg(R0)  returns 0x00000000 (0000ms, 1098ms total)
T2784 002:962 JLINK_WriteMem(0x20000180, 0x0400 Bytes, ...) - Data: 0C 22 0F 21 C4 48 02 F0 62 FD 4F F6 80 70 00 90 ... -- CPU_WriteMem(1024 bytes @ 0x20000180)  returns 0x400 (0046ms, 1144ms total)
T2784 003:009 JLINK_WriteReg(R0, 0x08000C00)  returns 0x00 (0000ms, 1144ms total)
T2784 003:009 JLINK_WriteReg(R1, 0x00000400)  returns 0x00 (0000ms, 1144ms total)
T2784 003:009 JLINK_WriteReg(R2, 0x20000180)  returns 0x00 (0000ms, 1144ms total)
T2784 003:009 JLINK_WriteReg(R3, 0x00000000)  returns 0x00 (0000ms, 1144ms total)
T2784 003:009 JLINK_WriteReg(R4, 0x00000000)  returns 0x00 (0000ms, 1144ms total)
T2784 003:009 JLINK_WriteReg(R5, 0x00000000)  returns 0x00 (0000ms, 1144ms total)
T2784 003:009 JLINK_WriteReg(R6, 0x00000000)  returns 0x00 (0000ms, 1144ms total)
T2784 003:009 JLINK_WriteReg(R7, 0x00000000)  returns 0x00 (0000ms, 1144ms total)
T2784 003:009 JLINK_WriteReg(R8, 0x00000000)  returns 0x00 (0000ms, 1144ms total)
T2784 003:009 JLINK_WriteReg(R9, 0x2000017C)  returns 0x00 (0000ms, 1144ms total)
T2784 003:009 JLINK_WriteReg(R10, 0x00000000)  returns 0x00 (0000ms, 1144ms total)
T2784 003:009 JLINK_WriteReg(R11, 0x00000000)  returns 0x00 (0000ms, 1144ms total)
T2784 003:009 JLINK_WriteReg(R12, 0x00000000)  returns 0x00 (0000ms, 1144ms total)
T2784 003:009 JLINK_WriteReg(R13 (SP), 0x20001000)  returns 0x00 (0000ms, 1144ms total)
T2784 003:009 JLINK_WriteReg(R14, 0x20000001)  returns 0x00 (0000ms, 1144ms total)
T2784 003:009 JLINK_WriteReg(R15 (PC), 0x20000108)  returns 0x00 (0000ms, 1144ms total)
T2784 003:009 JLINK_WriteReg(XPSR, 0x01000000)  returns 0x00 (0001ms, 1145ms total)
T2784 003:010 JLINK_WriteReg(MSP, 0x20001000)  returns 0x00 (0000ms, 1145ms total)
T2784 003:010 JLINK_WriteReg(PSP, 0x20001000)  returns 0x00 (0000ms, 1145ms total)
T2784 003:010 JLINK_WriteReg(CFBP, 0x00000000)  returns 0x00 (0000ms, 1145ms total)
T2784 003:010 JLINK_SetBPEx(Addr = 0x20000000, Type = 0xFFFFFFF2)  returns 0x0000000D (0000ms, 1145ms total)
T2784 003:010 JLINK_Go() (0005ms, 1150ms total)
T2784 003:015 JLINK_IsHalted()  returns FALSE (0001ms, 1151ms total)
T2784 003:075 JLINK_IsHalted() -- CPU_ReadMem(2 bytes @ 0x20000000)  returns TRUE (0012ms, 1162ms total)
T2784 003:087 JLINK_ReadReg(R15 (PC))  returns 0x20000000 (0000ms, 1150ms total)
T2784 003:087 JLINK_ClrBPEx(BPHandle = 0x0000000D)  returns 0x00 (0000ms, 1150ms total)
T2784 003:087 JLINK_ReadReg(R0)  returns 0x00000000 (0000ms, 1150ms total)
T2784 003:087 JLINK_WriteMem(0x20000180, 0x0400 Bytes, ...) - Data: 32 20 FF F7 68 FE 40 F2 04 71 35 20 FF F7 63 FE ... -- CPU_WriteMem(1024 bytes @ 0x20000180)  returns 0x400 (0046ms, 1196ms total)
T2784 003:133 JLINK_WriteReg(R0, 0x08001000)  returns 0x00 (0000ms, 1196ms total)
T2784 003:133 JLINK_WriteReg(R1, 0x00000400)  returns 0x00 (0001ms, 1197ms total)
T2784 003:134 JLINK_WriteReg(R2, 0x20000180)  returns 0x00 (0000ms, 1197ms total)
T2784 003:134 JLINK_WriteReg(R3, 0x00000000)  returns 0x00 (0000ms, 1197ms total)
T2784 003:134 JLINK_WriteReg(R4, 0x00000000)  returns 0x00 (0000ms, 1197ms total)
T2784 003:134 JLINK_WriteReg(R5, 0x00000000)  returns 0x00 (0000ms, 1197ms total)
T2784 003:134 JLINK_WriteReg(R6, 0x00000000)  returns 0x00 (0000ms, 1197ms total)
T2784 003:134 JLINK_WriteReg(R7, 0x00000000)  returns 0x00 (0000ms, 1197ms total)
T2784 003:134 JLINK_WriteReg(R8, 0x00000000)  returns 0x00 (0000ms, 1197ms total)
T2784 003:134 JLINK_WriteReg(R9, 0x2000017C)  returns 0x00 (0000ms, 1197ms total)
T2784 003:134 JLINK_WriteReg(R10, 0x00000000)  returns 0x00 (0000ms, 1197ms total)
T2784 003:134 JLINK_WriteReg(R11, 0x00000000)  returns 0x00 (0000ms, 1197ms total)
T2784 003:134 JLINK_WriteReg(R12, 0x00000000)  returns 0x00 (0000ms, 1197ms total)
T2784 003:134 JLINK_WriteReg(R13 (SP), 0x20001000)  returns 0x00 (0000ms, 1197ms total)
T2784 003:134 JLINK_WriteReg(R14, 0x20000001)  returns 0x00 (0000ms, 1197ms total)
T2784 003:134 JLINK_WriteReg(R15 (PC), 0x20000108)  returns 0x00 (0000ms, 1197ms total)
T2784 003:134 JLINK_WriteReg(XPSR, 0x01000000)  returns 0x00 (0000ms, 1197ms total)
T2784 003:134 JLINK_WriteReg(MSP, 0x20001000)  returns 0x00 (0000ms, 1197ms total)
T2784 003:134 JLINK_WriteReg(PSP, 0x20001000)  returns 0x00 (0000ms, 1197ms total)
T2784 003:134 JLINK_WriteReg(CFBP, 0x00000000)  returns 0x00 (0000ms, 1197ms total)
T2784 003:134 JLINK_SetBPEx(Addr = 0x20000000, Type = 0xFFFFFFF2)  returns 0x0000000E (0000ms, 1197ms total)
T2784 003:134 JLINK_Go() (0006ms, 1203ms total)
T2784 003:140 JLINK_IsHalted()  returns FALSE (0001ms, 1204ms total)
T2784 003:203 JLINK_IsHalted() -- CPU_ReadMem(2 bytes @ 0x20000000)  returns TRUE (0012ms, 1215ms total)
T2784 003:215 JLINK_ReadReg(R15 (PC))  returns 0x20000000 (0000ms, 1203ms total)
T2784 003:215 JLINK_ClrBPEx(BPHandle = 0x0000000E)  returns 0x00 (0000ms, 1203ms total)
T2784 003:215 JLINK_ReadReg(R0)  returns 0x00000000 (0000ms, 1203ms total)
T2784 003:216 JLINK_WriteMem(0x20000180, 0x0400 Bytes, ...) - Data: 3C 20 FF F7 68 FC 40 F6 0F 41 3D 20 FF F7 63 FC ... -- CPU_WriteMem(1024 bytes @ 0x20000180)  returns 0x400 (0046ms, 1249ms total)
T2784 003:262 JLINK_WriteReg(R0, 0x08001400)  returns 0x00 (0000ms, 1249ms total)
T2784 003:262 JLINK_WriteReg(R1, 0x00000400)  returns 0x00 (0000ms, 1249ms total)
T2784 003:262 JLINK_WriteReg(R2, 0x20000180)  returns 0x00 (0000ms, 1249ms total)
T2784 003:262 JLINK_WriteReg(R3, 0x00000000)  returns 0x00 (0000ms, 1249ms total)
T2784 003:262 JLINK_WriteReg(R4, 0x00000000)  returns 0x00 (0000ms, 1249ms total)
T2784 003:262 JLINK_WriteReg(R5, 0x00000000)  returns 0x00 (0000ms, 1249ms total)
T2784 003:262 JLINK_WriteReg(R6, 0x00000000)  returns 0x00 (0000ms, 1249ms total)
T2784 003:262 JLINK_WriteReg(R7, 0x00000000)  returns 0x00 (0000ms, 1249ms total)
T2784 003:262 JLINK_WriteReg(R8, 0x00000000)  returns 0x00 (0000ms, 1249ms total)
T2784 003:262 JLINK_WriteReg(R9, 0x2000017C)  returns 0x00 (0000ms, 1249ms total)
